;$FILEVERSION=1.3
;$STARTTIME=45677.5850405144
;
;   C:\Users\downs\OneDrive\πŸ≈¡ »≠∏È\»∏body_¡¬√¯±Ù∫˝¿Ã8.trc
;   Start time: 2025-01-20 14:02:27.500.4
;-------------------------------------------------------------------------------
;   Bus  Name  Connection     Protocol
;   1    test  test@pcan_usb  CAN
;-------------------------------------------------------------------------------
;   Message Number
;   |         Time Offset (ms)
;   |         |       Bus
;   |         |       |    Type
;   |         |       |    |       ID (hex)
;   |         |       |    |       |    Reserved
;   |         |       |    |       |    |   Data Length Code
;   |         |       |    |       |    |   |    Data Bytes (hex) ...
;   |         |       |    |       |    |   |    |
;   |         |       |    |       |    |   |    |
;---+-- ------+------ +- --+-- ----+--- +- -+-- -+ -- -- -- -- -- -- --
     1)         5.933 1  Rx        0141 -  8    90 00 00 00 00 00 00 00 
     2)         6.189 1  Rx        0189 -  8    00 00 00 04 00 2B 00 C0 
     3)         6.616 1  Rx        0105 -  8    00 00 00 00 08 00 00 00 
     4)        25.944 1  Rx        0142 -  8    00 55 55 00 00 01 14 00 
     5)        26.200 1  Rx        018F -  8    00 00 40 00 00 00 00 00 
     6)        26.626 1  Rx        0106 -  8    00 00 00 00 00 3E 3C 4C 
     7)        36.013 1  Rx        0168 -  8    98 00 0C 05 01 30 00 00 
     8)        36.269 1  Rx        01F7 -  8    00 00 00 40 00 00 00 00 
     9)        36.525 1  Rx        0189 -  8    00 00 00 04 00 28 00 C0 
    10)        45.997 1  Rx        0540 -  8    62 60 66 00 00 00 00 00 
    11)        46.210 1  Rx        0169 -  8    00 20 00 00 08 40 C0 00 
    12)        46.466 1  Rx        0188 -  8    00 60 00 02 00 00 00 00 
    13)        46.722 1  Rx        01FA -  8    FF C0 00 00 00 00 00 00 
    14)        46.978 1  Rx        0107 -  8    00 00 00 20 00 00 00 00 
    15)        56.151 1  Rx        016A -  8    00 00 00 00 06 00 00 00 
    16)        56.706 1  Rx        0588 -  8    78 00 00 00 00 00 00 00 
    17)        65.964 1  Rx        018A -  8    00 00 00 00 00 00 30 00 
    18)        66.306 1  Rx        0589 -  8    00 00 00 00 00 00 00 00 
    19)        66.647 1  Rx        010F -  8    20 00 00 00 00 00 00 00 
    20)        76.076 1  Rx        0189 -  8    00 00 00 04 00 28 00 C0 
    21)        76.332 1  Rx        018B -  8    14 FF F8 00 EF 00 0C 00 
    22)        82.220 1  Rx        01BD -  8    C4 00 00 00 00 00 00 00 
    23)        86.145 1  Rx        018C -  8    81 00 00 00 20 00 00 00 
    24)        86.615 1  Rx        0110 -  8    00 00 00 00 00 00 00 00 
    25)        96.257 1  Rx        018D -  8    0A F1 57 0A 02 00 00 08 
    26)        96.684 1  Rx        0400 -  8    06 02 00 00 00 00 FF FF 
    27)       101.548 1  Rx        01BE -  8    C4 00 00 00 00 00 00 00 
    28)       106.156 1  Rx        0189 -  8    00 00 00 04 00 29 00 C0 
    29)       106.412 1  Rx        018E -  8    FF FF FF FF 01 00 00 00 
    30)       106.668 1  Rx        0100 -  8    84 00 00 D8 00 04 80 00 
    31)       106.924 1  Rx        0111 -  8    00 00 00 00 00 00 00 00 
    32)       126.550 1  Rx        0101 -  8    10 02 00 00 00 00 00 30 
    33)       126.806 1  Rx        0112 -  8    C0 88 08 5F 04 30 00 00 
    34)       146.091 1  Rx        0189 -  8    00 00 00 04 00 2A 00 C0 
    35)       146.646 1  Rx        0102 -  8    00 00 A2 00 00 00 00 00 
    36)       146.859 1  Rx        0113 -  8    10 C0 00 00 00 00 00 00 
    37)       166.614 1  Rx        0103 -  8    00 00 00 00 00 00 00 00 
    38)       166.827 1  Rx        0510 -  8    00 00 00 00 00 00 00 00 
    39)       186.069 1  Rx        0189 -  8    00 00 00 04 00 2A 00 C0 
    40)       186.283 1  Rx        0140 -  8    00 00 00 00 00 00 00 00 
    41)       186.624 1  Rx        0104 -  8    00 40 00 02 00 34 01 00 
    42)       196.138 1  Rx        0406 -  8    16 02 00 00 00 00 FF FF 
    43)       206.122 1  Rx        0141 -  8    90 00 00 00 00 00 00 00 
    44)       206.592 1  Rx        0105 -  8    00 00 00 00 08 00 00 00 
    45)       215.935 1  Rx        0189 -  8    00 00 00 04 00 2B 00 C0 
    46)       226.047 1  Rx        018F -  8    00 00 40 00 00 00 00 00 
    47)       226.303 1  Rx        0142 -  8    00 55 55 00 00 01 14 00 
    48)       226.602 1  Rx        0106 -  8    00 00 00 00 00 3E 3C 4C 
    49)       236.031 1  Rx        0168 -  8    98 00 0C 05 01 30 00 00 
    50)       236.287 1  Rx        01F7 -  8    00 00 00 40 00 00 00 00 
    51)       246.100 1  Rx        0169 -  8    00 20 00 00 08 40 C0 00 
    52)       246.356 1  Rx        0188 -  8    00 60 00 02 00 00 00 00 
    53)       246.612 1  Rx        01FA -  8    FF C0 00 00 00 00 00 00 
    54)       246.868 1  Rx        0107 -  8    00 00 00 20 00 00 00 00 
    55)       247.082 1  Rx        0540 -  8    62 60 66 00 00 00 00 00 
    56)       256.041 1  Rx        016A -  8    00 00 00 00 06 00 00 00 
    57)       256.255 1  Rx        0189 -  8    00 00 00 04 00 2B 00 C0 
    58)       256.511 1  Rx        0588 -  8    78 00 00 00 00 00 00 00 
    59)       265.940 1  Rx        018A -  8    00 00 00 00 00 00 30 00 
    60)       266.153 1  Rx        0589 -  8    00 00 00 00 00 00 00 00 
    61)       266.623 1  Rx        010F -  8    20 00 00 00 00 00 00 00 
    62)       276.009 1  Rx        018B -  8    14 FF F8 00 EF 00 0C 00 
    63)       281.470 1  Rx        01BD -  8    C4 00 00 00 00 00 00 00 
    64)       286.078 1  Rx        0189 -  8    00 00 00 04 00 28 00 C0 
    65)       286.292 1  Rx        018C -  8    81 00 00 00 20 00 00 00 
    66)       286.676 1  Rx        0110 -  8    00 00 00 00 00 00 00 00 
    67)       286.932 1  Rx        0416 -  8    00 02 00 00 00 00 FF FF 
    68)       296.062 1  Rx        018D -  8    0A F1 57 0A 02 00 00 08 
    69)       301.907 1  Rx        01BE -  8    C4 00 00 00 00 00 00 00 
    70)       306.046 1  Rx        018E -  8    FF FF FF FF 01 00 00 00 
    71)       306.515 1  Rx        0100 -  8    84 00 00 D8 00 04 80 00 
    72)       306.771 1  Rx        0111 -  8    00 00 00 00 00 00 00 00 
    73)       326.099 1  Rx        0189 -  8    00 00 00 04 00 29 00 C0 
    74)       326.611 1  Rx        0101 -  8    10 02 00 00 00 00 00 30 
    75)       326.867 1  Rx        0112 -  8    C0 88 08 5F 04 30 00 00 
    76)       346.536 1  Rx        0102 -  8    00 00 A2 00 00 00 00 00 
    77)       346.792 1  Rx        0113 -  8    10 C0 00 00 00 00 00 00 
    78)       365.906 1  Rx        0189 -  8    00 00 00 04 00 29 00 C0 
    79)       366.589 1  Rx        0103 -  8    00 00 00 00 00 00 00 00 
    80)       366.802 1  Rx        0510 -  8    00 00 00 00 00 00 00 00 
    81)       386.301 1  Rx        0140 -  8    00 00 00 00 00 00 00 00 
    82)       386.557 1  Rx        0104 -  8    00 40 00 02 00 34 01 00 
    83)       386.813 1  Rx        0400 -  8    06 02 00 00 00 00 FF FF 
    84)       396.029 1  Rx        0189 -  8    00 00 00 04 00 2A 00 C0 
    85)       406.311 1  Rx        0141 -  8    90 00 00 00 00 00 00 00 
    86)       406.567 1  Rx        0105 -  8    00 00 00 00 08 00 00 00 
    87)       426.108 1  Rx        018F -  8    00 00 40 00 00 00 00 00 
    88)       426.364 1  Rx        0142 -  8    00 55 55 00 00 01 14 00 
    89)       426.620 1  Rx        0106 -  8    00 00 00 00 00 3E 3C 4C 
    90)       436.007 1  Rx        0168 -  8    98 00 0C 05 01 30 00 00 
    91)       436.263 1  Rx        01F7 -  8    00 00 00 40 00 00 00 00 
    92)       436.519 1  Rx        0189 -  8    00 00 00 04 00 2A 00 C0 
    93)       446.375 1  Rx        0540 -  8    62 60 66 00 00 00 00 00 
    94)       446.588 1  Rx        0169 -  8    00 20 00 00 08 40 C0 00 
    95)       446.844 1  Rx        0107 -  8    00 00 00 20 00 00 00 00 
    96)       447.100 1  Rx        0188 -  8    00 60 00 02 00 00 00 00 
    97)       447.356 1  Rx        01FA -  8    FF C0 00 00 00 00 00 00 
    98)       456.060 1  Rx        016A -  8    00 00 00 00 06 00 00 00 
    99)       456.486 1  Rx        0588 -  8    78 00 00 00 00 00 00 00 
   100)       465.958 1  Rx        0189 -  8    00 00 00 04 00 2B 00 C0 
   101)       466.214 1  Rx        018A -  8    00 00 00 00 00 00 30 00 
   102)       466.428 1  Rx        0589 -  8    00 00 00 00 00 00 00 00 
   103)       466.684 1  Rx        010F -  8    20 00 00 00 00 00 00 00 
   104)       476.113 1  Rx        018B -  8    14 FF F8 00 EF 00 0C 00 
   105)       481.915 1  Rx        01BD -  8    C4 00 00 00 00 00 00 00 
   106)       486.097 1  Rx        018C -  8    81 00 00 00 20 00 00 00 
   107)       486.481 1  Rx        0406 -  8    16 02 00 00 00 00 FF FF 
   108)       486.737 1  Rx        0110 -  8    00 00 00 00 00 00 00 00 
   109)       496.038 1  Rx        018D -  8    0A F1 57 0A 02 00 00 08 
   110)       502.054 1  Rx        01BE -  8    C4 00 00 00 00 00 00 00 
   111)       505.979 1  Rx        0189 -  8    00 00 00 04 00 28 00 C0 
   112)       506.235 1  Rx        018E -  8    FF FF FF FF 01 00 00 00 
   113)       506.576 1  Rx        0100 -  8    84 00 00 D8 00 04 80 00 
   114)       506.790 1  Rx        0111 -  8    00 00 00 00 00 00 00 00 
   115)       526.544 1  Rx        0101 -  8    10 02 00 00 00 00 00 30 
   116)       526.800 1  Rx        0112 -  8    C0 88 08 5F 04 30 00 00 
   117)       546.042 1  Rx        0189 -  8    00 00 00 04 00 28 00 C0 
   118)       546.597 1  Rx        0102 -  8    00 00 A2 00 00 00 00 00 
   119)       546.810 1  Rx        0113 -  8    10 C0 00 00 00 00 00 00 
   120)       566.565 1  Rx        0103 -  8    00 00 00 00 00 00 00 00 
   121)       566.821 1  Rx        0510 -  8    00 00 00 00 00 00 00 00 
   122)       575.994 1  Rx        0189 -  8    00 00 00 04 00 29 00 C0 
   123)       576.548 1  Rx        0416 -  8    00 02 00 00 00 00 FF FF 
   124)       586.490 1  Rx        0140 -  8    00 00 00 00 00 00 00 00 
   125)       586.746 1  Rx        0104 -  8    00 40 00 02 00 34 01 00 
   126)       606.500 1  Rx        0141 -  8    90 00 00 00 00 00 00 00 
   127)       606.756 1  Rx        0105 -  8    00 00 00 00 08 00 00 00 
   128)       616.100 1  Rx        0189 -  8    00 00 00 04 00 29 00 C0 
   129)       626.084 1  Rx        018F -  8    00 00 40 00 00 00 00 00 
   130)       626.510 1  Rx        0142 -  8    00 55 55 00 00 01 14 00 
   131)       626.766 1  Rx        0106 -  8    00 00 00 00 00 3E 3C 4C 
   132)       636.025 1  Rx        0168 -  8    98 00 0C 05 01 30 00 00 
   133)       636.281 1  Rx        01F7 -  8    00 00 00 40 00 00 00 00 
   134)       646.094 1  Rx        0169 -  8    00 20 00 00 08 40 C0 00 
   135)       646.307 1  Rx        0188 -  8    00 60 00 02 00 00 00 00 
   136)       646.563 1  Rx        0189 -  8    00 00 00 04 00 2A 00 C0 
   137)       646.819 1  Rx        0107 -  8    00 00 00 20 00 00 00 00 
   138)       647.075 1  Rx        01FA -  8    FF C0 00 00 00 00 00 00 
   139)       647.331 1  Rx        0540 -  8    62 60 66 00 00 00 00 00 
   140)       656.035 1  Rx        016A -  8    00 00 00 00 06 00 00 00 
   141)       656.462 1  Rx        0588 -  8    78 00 00 00 00 00 00 00 
   142)       665.934 1  Rx        018A -  8    00 00 00 00 00 00 30 00 
   143)       666.190 1  Rx        0589 -  8    00 00 00 00 00 00 00 00 
   144)       666.616 1  Rx        010F -  8    20 00 00 00 00 00 00 00 
   145)       676.088 1  Rx        018B -  8    14 FF F8 00 EF 00 0C 00 
   146)       676.728 1  Rx        0400 -  8    06 02 00 00 00 00 FF FF 
   147)       681.934 1  Rx        01BD -  8    C4 00 00 00 00 00 00 00 
   148)       686.115 1  Rx        0189 -  8    00 00 00 04 00 2B 00 C0 
   149)       686.371 1  Rx        018C -  8    81 00 00 00 20 00 00 00 
   150)       686.669 1  Rx        0110 -  8    00 00 00 00 00 00 00 00 
   151)       696.269 1  Rx        018D -  8    0A F1 57 0A 02 00 00 08 
   152)       701.304 1  Rx        01BE -  8    C4 00 00 00 00 00 00 00 
   153)       706.296 1  Rx        018E -  8    FF FF FF FF 01 00 00 00 
   154)       706.552 1  Rx        0100 -  8    84 00 00 D8 00 04 80 00 
   155)       706.808 1  Rx        0111 -  8    00 00 00 00 00 00 00 00 
   156)       726.093 1  Rx        0189 -  8    00 00 00 04 00 2B 00 C0 
   157)       726.605 1  Rx        0101 -  8    10 02 00 00 00 00 00 30 
   158)       726.861 1  Rx        0112 -  8    C0 88 08 5F 04 30 00 00 
   159)       746.530 1  Rx        0102 -  8    00 00 A2 00 00 00 00 00 
   160)       746.786 1  Rx        0113 -  8    10 C0 00 00 00 00 00 00 
   161)       756.300 1  Rx        0189 -  8    00 00 00 04 00 28 00 C0 
   162)       766.583 1  Rx        0103 -  8    00 00 00 00 00 00 00 00 
   163)       766.839 1  Rx        0510 -  8    00 00 00 00 00 00 00 00 
   164)       776.695 1  Rx        0406 -  8    16 02 00 00 00 00 FF FF 
   165)       786.551 1  Rx        0104 -  8    00 40 00 02 00 34 01 00 
   166)       786.807 1  Rx        0140 -  8    00 00 00 00 00 00 00 00 
   167)       796.138 1  Rx        0189 -  8    00 00 00 04 00 28 00 C0 
   168)       806.591 1  Rx        0105 -  8    00 00 00 00 08 00 00 00 
   169)       806.847 1  Rx        0141 -  8    90 00 00 00 00 00 00 00 
   170)       826.047 1  Rx        0189 -  8    00 00 00 04 00 29 00 C0 
   171)       826.303 1  Rx        018F -  8    00 00 40 00 00 00 00 00 
   172)       826.687 1  Rx        0106 -  8    00 00 00 00 00 3E 3C 4C 
   173)       826.900 1  Rx        0142 -  8    00 55 55 00 00 01 14 00 
   174)       836.073 1  Rx        0168 -  8    98 00 0C 05 01 30 00 00 
   175)       836.329 1  Rx        01F7 -  8    00 00 00 40 00 00 00 00 
   176)       846.356 1  Rx        0169 -  8    00 20 00 00 08 40 C0 00 
   177)       846.612 1  Rx        0188 -  8    00 60 00 02 00 00 00 00 
   178)       846.868 1  Rx        0107 -  8    00 00 00 20 00 00 00 00 
   179)       847.124 1  Rx        01FA -  8    FF C0 00 00 00 00 00 00 
   180)       847.337 1  Rx        0540 -  8    62 60 66 00 00 00 00 00 
   181)       856.041 1  Rx        016A -  8    00 00 00 00 06 00 00 00 
   182)       856.467 1  Rx        0588 -  8    78 00 00 00 00 00 00 00 
   183)       866.067 1  Rx        0189 -  8    00 00 00 04 00 2A 00 C0 
   184)       866.281 1  Rx        018A -  8    00 00 00 00 00 00 30 00 
   185)       866.537 1  Rx        0589 -  8    00 00 00 00 00 00 00 00 
   186)       866.793 1  Rx        010F -  8    20 00 00 00 00 00 00 00 
   187)       876.136 1  Rx        018B -  8    14 FF F8 00 EF 00 0C 00 
   188)       876.691 1  Rx        0416 -  8    00 02 00 00 00 00 FF FF 
   189)       881.256 1  Rx        01BD -  8    C4 00 00 00 00 00 00 00 
   190)       886.334 1  Rx        018C -  8    81 00 00 00 20 00 00 00 
   191)       886.675 1  Rx        0110 -  8    00 00 00 00 00 00 00 00 
   192)       896.275 1  Rx        018D -  8    0A F1 57 0A 02 00 00 08 
   193)       901.523 1  Rx        01BE -  8    C4 00 00 00 00 00 00 00 
   194)       906.429 1  Rx        0189 -  8    00 00 00 04 00 2A 00 C0 
   195)       906.643 1  Rx        0100 -  8    84 00 00 D8 00 04 80 00 
   196)       906.899 1  Rx        0111 -  8    00 00 00 00 00 00 00 00 
   197)       907.155 1  Rx        018E -  8    FF FF FF FF 01 00 00 00 
   198)       916.456 1  Rx        0168 -  8    98 00 0C 05 01 30 80 00 
   199)       916.712 1  Rx        016A -  8    08 00 00 00 06 00 00 00 
   200)       926.568 1  Rx        0101 -  8    10 02 00 00 00 00 00 30 
   201)       926.824 1  Rx        0112 -  8    C0 88 08 5F 04 30 00 00 
   202)       936.509 1  Rx        0189 -  8    00 00 00 04 00 2B 00 C0 
   203)       946.578 1  Rx        0102 -  8    00 00 A2 00 00 00 00 00 
   204)       946.834 1  Rx        0113 -  8    10 C0 00 00 00 00 00 00 
   205)       956.519 1  Rx        0168 -  8    98 00 0C 05 01 30 80 00 
   206)       956.775 1  Rx        016A -  8    08 00 00 00 06 00 00 00 
   207)       966.588 1  Rx        0103 -  8    00 00 00 00 00 00 00 00 
   208)       966.844 1  Rx        0510 -  8    00 00 00 00 00 00 00 00 
   209)       976.487 1  Rx        0189 -  8    00 00 00 04 00 2B 00 C0 
   210)       976.743 1  Rx        0400 -  8    06 02 00 00 00 00 FF FF 
   211)       986.599 1  Rx        0104 -  8    00 40 00 02 00 34 01 00 
   212)       986.940 1  Rx        0140 -  8    00 00 00 00 00 00 00 00 
   213)       996.412 1  Rx        0168 -  8    98 00 0C 05 01 30 80 00 
   214)       996.668 1  Rx        016A -  8    08 00 00 00 06 00 00 00 
   215)      1006.524 1  Rx        0189 -  8    00 00 00 04 00 28 00 C0 
   216)      1006.780 1  Rx        0105 -  8    00 00 00 00 08 00 00 00 
   217)      1007.036 1  Rx        0141 -  8    90 00 00 00 00 00 00 00 
   218)      1026.534 1  Rx        018F -  8    00 00 40 00 00 00 00 00 
   219)      1026.790 1  Rx        0106 -  8    00 00 00 00 00 3E 3C 4C 
   220)      1027.003 1  Rx        0142 -  8    00 55 55 00 00 01 14 00 
   221)      1036.390 1  Rx        0168 -  8    98 00 0C 05 01 30 80 00 
   222)      1036.646 1  Rx        01F7 -  8    00 00 00 40 00 00 00 00 
   223)      1046.587 1  Rx        0169 -  8    00 20 00 00 08 40 C0 00 
   224)      1046.800 1  Rx        0107 -  8    00 00 00 20 00 00 00 00 
   225)      1047.056 1  Rx        0188 -  8    00 60 00 02 00 00 00 00 
   226)      1047.312 1  Rx        0189 -  8    00 00 00 04 00 28 00 C0 
   227)      1047.568 1  Rx        0540 -  8    62 60 66 00 00 00 00 00 
   228)      1047.824 1  Rx        01FA -  8    FF C0 00 00 00 00 00 00 
   229)      1056.571 1  Rx        016A -  8    08 00 00 00 06 00 00 00 
   230)      1057.254 1  Rx        0588 -  8    78 00 00 00 00 00 00 00 
   231)      1066.171 1  Rx        018A -  8    00 00 00 00 00 00 30 00 
   232)      1066.555 1  Rx        0589 -  8    00 00 00 00 00 00 00 00 
   233)      1066.811 1  Rx        010F -  8    20 00 00 00 00 00 00 00 
   234)      1076.411 1  Rx        0189 -  8    00 00 00 04 00 29 00 C0 
   235)      1076.667 1  Rx        018B -  8    14 FF F8 00 EF 00 0C 00 
   236)      1077.051 1  Rx        0406 -  8    16 02 00 00 00 00 FF FF 
   237)      1081.445 1  Rx        01BD -  8    C4 00 00 00 00 00 00 00 
   238)      1086.480 1  Rx        018C -  8    81 00 00 00 20 00 00 00 
   239)      1086.736 1  Rx        0110 -  8    00 00 00 00 00 00 00 00 
   240)      1096.634 1  Rx        018D -  8    0A F1 57 0A 02 00 00 08 
   241)      1101.413 1  Rx        01BE -  8    C4 00 00 00 00 00 00 00 
   242)      1106.533 1  Rx        018E -  8    FF FF FF FF 01 00 00 00 
   243)      1106.746 1  Rx        0100 -  8    84 00 00 D8 00 04 80 00 
   244)      1107.002 1  Rx        0111 -  8    00 00 00 00 00 00 00 00 
   245)      1116.517 1  Rx        0189 -  8    00 00 00 04 00 2A 00 C0 
   246)      1126.586 1  Rx        0101 -  8    10 02 00 00 00 00 00 30 
   247)      1126.799 1  Rx        0112 -  8    C0 88 08 5F 04 30 00 00 
   248)      1146.554 1  Rx        0102 -  8    00 00 A2 00 00 00 00 00 
   249)      1146.810 1  Rx        0113 -  8    10 C0 00 00 00 00 00 00 
   250)      1156.537 1  Rx        0189 -  8    00 00 00 04 00 2A 00 C0 
   251)      1166.564 1  Rx        0103 -  8    00 00 00 00 00 00 00 00 
   252)      1166.820 1  Rx        0510 -  8    00 00 00 00 00 00 00 00 
   253)      1167.076 1  Rx        0416 -  8    00 02 00 00 00 00 FF FF 
   254)      1186.404 1  Rx        0189 -  8    00 00 00 04 00 2B 00 C0 
   255)      1186.617 1  Rx        0104 -  8    00 40 00 02 00 34 01 00 
   256)      1187.172 1  Rx        0140 -  8    00 00 00 00 00 00 00 00 
   257)      1206.585 1  Rx        0105 -  8    00 00 00 00 08 00 00 00 
   258)      1207.097 1  Rx        0141 -  8    90 00 00 00 00 00 00 00 
   259)      1226.424 1  Rx        0189 -  8    00 00 00 04 00 2B 00 C0 
   260)      1226.680 1  Rx        0106 -  8    00 00 00 00 00 3E 3C 4C 
   261)      1226.894 1  Rx        018F -  8    00 00 40 00 00 00 00 00 
   262)      1227.150 1  Rx        0142 -  8    00 55 55 00 00 01 14 00 
   263)      1236.366 1  Rx        0168 -  8    98 00 0C 05 01 30 80 00 
   264)      1236.622 1  Rx        01F7 -  8    00 00 00 40 00 00 00 00 
   265)      1246.477 1  Rx        0169 -  8    00 20 00 00 08 40 C0 00 
   266)      1246.733 1  Rx        0107 -  8    00 00 00 20 00 00 00 00 
   267)      1246.989 1  Rx        0188 -  8    00 60 00 02 00 00 00 00 
   268)      1247.245 1  Rx        01FA -  8    FF C0 00 00 00 00 00 00 
   269)      1247.459 1  Rx        0540 -  8    62 60 66 00 00 00 00 00 
   270)      1256.547 1  Rx        016A -  8    08 00 00 00 06 00 00 00 
   271)      1256.803 1  Rx        0189 -  8    00 00 00 04 00 28 00 C0 
   272)      1257.272 1  Rx        0588 -  8    78 00 00 00 00 00 00 00 
   273)      1266.104 1  Rx        018A -  8    00 00 00 00 00 00 30 00 
   274)      1266.573 1  Rx        0589 -  8    00 00 00 00 00 00 00 00 
   275)      1266.786 1  Rx        010F -  8    20 00 00 00 00 00 00 00 
   276)      1267.042 1  Rx        0400 -  8    06 02 00 00 00 00 FF FF 
   277)      1276.472 1  Rx        0168 -  8    98 00 0C 05 01 30 00 00 
   278)      1276.728 1  Rx        018B -  8    14 FF F8 00 EF 00 0C 00 
   279)      1281.250 1  Rx        01BD -  8    C4 00 00 00 00 00 00 00 
   280)      1286.413 1  Rx        0189 -  8    00 00 00 04 00 29 00 C0 
   281)      1286.669 1  Rx        0110 -  8    00 00 00 00 00 00 00 00 
   282)      1286.925 1  Rx        018C -  8    81 00 00 00 20 00 00 00 
   283)      1296.695 1  Rx        018D -  8    0A F1 57 0A 02 00 00 08 
   284)      1301.346 1  Rx        01BE -  8    C4 00 00 00 00 00 00 00 
   285)      1306.551 1  Rx        0100 -  8    84 00 00 D8 00 04 80 00 
   286)      1306.807 1  Rx        0111 -  8    00 00 00 00 00 00 00 00 
   287)      1307.063 1  Rx        018E -  8    FF FF FF FF 01 00 00 00 
   288)      1316.450 1  Rx        0168 -  8    98 00 0C 05 01 30 00 00 
   289)      1326.476 1  Rx        0189 -  8    00 00 00 04 00 29 00 C0 
   290)      1326.689 1  Rx        0101 -  8    10 02 00 00 00 00 00 30 
   291)      1326.945 1  Rx        0112 -  8    C0 88 08 5F 04 30 00 00 
   292)      1346.572 1  Rx        0102 -  8    00 00 A2 00 00 00 00 00 
   293)      1346.828 1  Rx        0113 -  8    10 C0 00 00 00 00 00 00 
   294)      1356.513 1  Rx        0168 -  8    98 00 0C 05 01 30 00 00 
   295)      1356.769 1  Rx        0189 -  8    00 00 00 04 00 2A 00 C0 
   296)      1366.582 1  Rx        0103 -  8    00 00 00 00 00 00 00 00 
   297)      1366.838 1  Rx        0510 -  8    00 00 00 00 00 00 00 00 
   298)      1367.265 1  Rx        0406 -  8    16 02 00 00 00 00 FF FF 
   299)      1386.592 1  Rx        0104 -  8    00 40 00 02 00 34 01 00 
   300)      1387.275 1  Rx        0140 -  8    00 00 00 00 00 00 00 00 
   301)      1396.363 1  Rx        0189 -  8    00 00 00 04 00 2A 00 C0 
   302)      1406.560 1  Rx        0105 -  8    00 00 00 00 08 00 00 00 
   303)      1407.286 1  Rx        0141 -  8    90 00 00 00 00 00 00 00 
   304)      1426.400 1  Rx        0189 -  8    00 00 00 04 00 2B 00 C0 
   305)      1426.656 1  Rx        0106 -  8    00 00 00 00 00 3E 3C 4C 
   306)      1426.869 1  Rx        018F -  8    00 00 40 00 00 00 00 00 
   307)      1427.339 1  Rx        0142 -  8    00 55 55 00 00 01 14 00 
   308)      1436.341 1  Rx        0168 -  8    98 00 0C 05 01 30 00 00 
   309)      1436.597 1  Rx        01F7 -  8    00 00 00 40 00 00 00 00 
   310)      1446.624 1  Rx        0107 -  8    00 00 00 20 00 00 00 00 
   311)      1446.922 1  Rx        0169 -  8    00 20 00 00 08 40 C0 00 
   312)      1447.178 1  Rx        0188 -  8    00 60 00 02 00 00 00 00 
   313)      1447.392 1  Rx        01FA -  8    FF C0 00 00 00 00 00 00 
   314)      1447.648 1  Rx        0540 -  8    62 60 66 00 00 00 00 00 
   315)      1456.565 1  Rx        016A -  8    08 00 00 00 06 00 00 00 
   316)      1457.205 1  Rx        0588 -  8    78 00 00 00 00 00 00 00 
   317)      1466.122 1  Rx        0189 -  8    00 00 00 04 00 28 00 C0 
   318)      1466.378 1  Rx        018A -  8    00 00 00 00 00 00 30 00 
   319)      1466.591 1  Rx        0589 -  8    00 00 00 00 00 00 00 00 
   320)      1466.847 1  Rx        010F -  8    20 00 00 00 00 00 00 00 
   321)      1467.402 1  Rx        0416 -  8    00 02 00 00 00 00 FF FF 
   322)      1476.404 1  Rx        018B -  8    14 FF F8 00 EF 00 0C 00 
   323)      1481.268 1  Rx        01BD -  8    C4 00 00 00 00 00 00 00 
   324)      1486.431 1  Rx        018C -  8    81 00 00 00 20 00 00 00 
   325)      1486.687 1  Rx        0110 -  8    00 00 00 00 00 00 00 00 
   326)      1496.543 1  Rx        018D -  8    0A F1 57 0A 02 00 00 08 
   327)      1501.449 1  Rx        01BE -  8    C4 00 00 00 00 00 00 00 
   328)      1506.441 1  Rx        0189 -  8    00 00 00 04 00 28 00 C0 
   329)      1506.697 1  Rx        0100 -  8    84 00 00 D8 00 04 80 00 
   330)      1506.953 1  Rx        0111 -  8    00 00 00 00 00 00 00 00 
   331)      1507.209 1  Rx        018E -  8    FF FF FF FF 01 00 00 00 
   332)      1526.580 1  Rx        0101 -  8    10 02 00 00 00 00 00 30 
   333)      1526.836 1  Rx        0112 -  8    C0 88 08 5F 04 30 00 00 
   334)      1536.478 1  Rx        0189 -  8    00 00 00 04 00 29 00 C0 
   335)      1546.547 1  Rx        0102 -  8    00 00 A2 00 00 00 00 00 
   336)      1546.803 1  Rx        0113 -  8    10 C0 00 00 00 00 00 00 
   337)      1566.558 1  Rx        0103 -  8    00 00 00 00 00 00 00 00 
   338)      1566.814 1  Rx        0400 -  8    06 02 00 00 00 00 FF FF 
   339)      1567.070 1  Rx        0510 -  8    00 00 00 00 00 00 00 00 
   340)      1576.456 1  Rx        0189 -  8    00 00 00 04 00 29 00 C0 
   341)      1586.611 1  Rx        0104 -  8    00 40 00 02 00 34 01 00 
   342)      1587.464 1  Rx        0140 -  8    00 00 00 00 00 00 00 00 
   343)      1606.109 1  Rx        0189 -  8    00 00 00 04 00 2A 00 C0 
   344)      1606.621 1  Rx        0105 -  8    00 00 00 00 08 00 00 00 
   345)      1607.517 1  Rx        0141 -  8    90 00 00 00 00 00 00 00 
   346)      1626.375 1  Rx        018F -  8    00 00 40 00 00 00 00 00 
   347)      1626.631 1  Rx        0106 -  8    00 00 00 00 00 3E 3C 4C 
   348)      1627.485 1  Rx        0142 -  8    00 55 55 00 00 01 14 00 
   349)      1636.402 1  Rx        0168 -  8    98 00 0C 05 01 30 80 00 
   350)      1636.658 1  Rx        01F7 -  8    00 00 00 40 00 00 00 00 
   351)      1646.343 1  Rx        0169 -  8    00 20 00 00 08 40 C0 00 
   352)      1646.599 1  Rx        0188 -  8    00 60 00 02 00 00 00 00 
   353)      1646.812 1  Rx        0107 -  8    00 00 00 20 00 00 00 00 
   354)      1647.068 1  Rx        0189 -  8    00 00 00 04 00 2B 00 C0 
   355)      1647.324 1  Rx        01FA -  8    FF C0 00 00 00 00 00 00 
   356)      1647.623 1  Rx        0540 -  8    62 60 66 00 00 00 00 00 
   357)      1656.498 1  Rx        016A -  8    08 00 00 00 06 00 00 00 
   358)      1657.052 1  Rx        0588 -  8    78 00 00 00 00 00 00 00 
   359)      1662.514 1  Rx        0406 -  8    16 02 00 00 00 00 FF FF 
   360)      1666.097 1  Rx        018A -  8    00 00 00 00 00 00 30 00 
   361)      1666.481 1  Rx        0589 -  8    00 00 00 00 00 00 00 00 
   362)      1666.737 1  Rx        010F -  8    20 00 00 00 00 00 00 00 
   363)      1676.380 1  Rx        0168 -  8    98 00 0C 05 01 30 80 00 
   364)      1676.636 1  Rx        018B -  8    14 FF F8 00 EF 00 0C 00 
   365)      1680.647 1  Rx        01BD -  8    C4 00 00 00 00 00 00 00 
   366)      1686.449 1  Rx        0189 -  8    00 00 00 04 00 2B 00 C0 
   367)      1686.705 1  Rx        0110 -  8    00 00 00 00 00 00 00 00 
   368)      1686.961 1  Rx        018C -  8    81 00 00 00 20 00 00 00 
   369)      1696.518 1  Rx        018D -  8    0A F1 57 0A 02 00 00 08 
   370)      1700.785 1  Rx        01BE -  8    C4 00 00 00 00 00 00 00 
   371)      1706.417 1  Rx        018E -  8    FF FF FF FF 01 00 00 00 
   372)      1706.630 1  Rx        0100 -  8    84 00 00 D8 00 04 80 00 
   373)      1706.886 1  Rx        0111 -  8    00 00 00 00 00 00 00 00 
   374)      1716.401 1  Rx        0168 -  8    98 00 0C 05 01 30 80 00 
   375)      1716.699 1  Rx        0189 -  8    00 00 00 04 00 28 00 C0 
   376)      1726.555 1  Rx        0101 -  8    10 02 00 00 00 00 00 30 
   377)      1726.811 1  Rx        0112 -  8    C0 88 08 5F 04 30 00 00 
   378)      1746.566 1  Rx        0102 -  8    00 00 A2 00 00 00 00 00 
   379)      1746.779 1  Rx        0113 -  8    10 C0 00 00 00 00 00 00 
   380)      1756.464 1  Rx        0189 -  8    00 00 00 04 00 28 00 C0 
   381)      1757.232 1  Rx        0416 -  8    00 02 00 00 00 00 FF FF 
   382)      1766.576 1  Rx        0103 -  8    00 00 00 00 00 00 00 00 
   383)      1766.832 1  Rx        0510 -  8    00 00 00 00 00 00 00 00 
   384)      1786.330 1  Rx        0189 -  8    00 00 00 04 00 29 00 C0 
   385)      1786.586 1  Rx        0104 -  8    00 40 00 02 00 34 01 00 
   386)      1787.696 1  Rx        0140 -  8    00 00 00 00 00 00 00 00 
   387)      1806.584 1  Rx        0105 -  8    00 00 00 00 08 00 00 00 
   388)      1807.693 1  Rx        0141 -  8    90 00 00 00 00 00 00 00 
   389)      1826.424 1  Rx        0189 -  8    00 00 00 04 00 2A 00 C0 
   390)      1826.637 1  Rx        0106 -  8    00 00 00 00 00 3E 3C 4C 
   391)      1826.893 1  Rx        018F -  8    00 00 40 00 00 00 00 00 
   392)      1827.746 1  Rx        0142 -  8    00 55 55 00 00 01 14 00 
   393)      1836.365 1  Rx        0168 -  8    98 00 0C 05 01 30 80 00 
   394)      1836.621 1  Rx        01F7 -  8    00 00 00 40 00 00 00 00 
   395)      1846.477 1  Rx        0169 -  8    00 20 00 00 08 40 C0 00 
   396)      1846.733 1  Rx        0107 -  8    00 00 00 20 00 00 00 00 
   397)      1846.989 1  Rx        0188 -  8    00 60 00 02 00 00 00 00 
   398)      1847.245 1  Rx        01FA -  8    FF C0 00 00 00 00 00 00 
   399)      1847.757 1  Rx        0540 -  8    62 60 66 00 00 00 00 00 
   400)      1856.503 1  Rx        016A -  8    08 00 00 00 06 00 00 00 
   401)      1856.759 1  Rx        0400 -  8    06 02 00 00 00 00 FF FF 
   402)      1857.228 1  Rx        0588 -  8    78 00 00 00 00 00 00 00 
   403)      1866.188 1  Rx        0189 -  8    00 00 00 04 00 2A 00 C0 
   404)      1866.402 1  Rx        018A -  8    00 00 00 00 00 00 30 00 
   405)      1866.658 1  Rx        0589 -  8    00 00 00 00 00 00 00 00 
   406)      1866.914 1  Rx        010F -  8    20 00 00 00 00 00 00 00 
   407)      1876.428 1  Rx        018B -  8    14 FF F8 00 EF 00 0C 00 
   408)      1880.481 1  Rx        01BD -  8    C4 00 00 00 00 00 00 00 
   409)      1886.497 1  Rx        018C -  8    81 00 00 00 20 00 00 00 
   410)      1886.753 1  Rx        0110 -  8    00 00 00 00 00 00 00 00 
   411)      1896.396 1  Rx        0189 -  8    00 00 00 04 00 2B 00 C0 
   412)      1896.695 1  Rx        018D -  8    0A F1 57 0A 02 00 00 08 
   413)      1900.577 1  Rx        01BE -  8    C4 00 00 00 00 00 00 00 
   414)      1906.422 1  Rx        018E -  8    FF FF FF FF 01 00 00 00 
   415)      1906.678 1  Rx        0100 -  8    84 00 00 D8 00 04 80 00 
   416)      1906.934 1  Rx        0111 -  8    00 00 00 00 00 00 00 00 
   417)      1926.561 1  Rx        0101 -  8    10 02 00 00 00 00 00 30 
   418)      1926.817 1  Rx        0112 -  8    C0 88 08 5F 04 30 00 00 
   419)      1936.502 1  Rx        0189 -  8    00 00 00 04 00 2B 00 C0 
   420)      1946.571 1  Rx        0102 -  8    00 00 A2 00 00 00 00 00 
   421)      1946.827 1  Rx        0113 -  8    10 C0 00 00 00 00 00 00 
   422)      1952.843 1  Rx        0406 -  8    16 02 00 00 00 00 FF FF 
   423)      1966.155 1  Rx        0189 -  8    00 00 00 04 00 28 00 C0 
   424)      1966.624 1  Rx        0103 -  8    00 00 00 00 00 00 00 00 
   425)      1966.880 1  Rx        0510 -  8    00 00 00 00 00 00 00 00 
   426)      1986.592 1  Rx        0104 -  8    00 40 00 02 00 34 01 00 
   427)      1987.872 1  Rx        0140 -  8    00 00 00 00 00 00 00 00 
   428)      1996.405 1  Rx        0168 -  8    98 00 0C 05 01 30 00 00 
   429)      2006.175 1  Rx        0189 -  8    00 00 00 04 00 29 00 C0 
   430)      2006.645 1  Rx        0105 -  8    00 00 00 00 08 00 00 00 
   431)      2007.925 1  Rx        0141 -  8    90 00 00 00 00 00 00 00 
   432)      2026.442 1  Rx        018F -  8    00 00 40 00 00 00 00 00 
   433)      2026.655 1  Rx        0106 -  8    00 00 00 00 00 3E 3C 4C 
   434)      2027.892 1  Rx        0142 -  8    00 55 55 00 00 01 14 00 
   435)      2036.426 1  Rx        0168 -  8    98 00 0C 05 01 30 00 00 
   436)      2036.639 1  Rx        01F7 -  8    00 00 00 40 00 00 00 00 
   437)      2046.452 1  Rx        0169 -  8    00 20 00 00 08 40 C0 00 
   438)      2046.708 1  Rx        016A -  8    00 00 00 00 06 00 00 00 
   439)      2046.964 1  Rx        0107 -  8    00 00 00 20 00 00 00 00 
   440)      2047.220 1  Rx        0188 -  8    00 60 00 02 00 00 00 00 
   441)      2047.433 1  Rx        0189 -  8    00 00 00 04 00 29 00 C0 
   442)      2047.732 1  Rx        01FA -  8    FF C0 00 00 00 00 00 00 
   443)      2047.988 1  Rx        0416 -  8    00 02 00 00 00 00 FF FF 
   444)      2048.201 1  Rx        0540 -  8    62 60 66 00 00 00 00 00 
   445)      2051.743 1  Rx        0112 -  8    C0 88 09 5F 04 30 00 00 
   446)      2057.033 1  Rx        0588 -  8    78 00 00 00 00 00 00 00 
   447)      2066.121 1  Rx        018A -  8    00 00 00 00 00 00 30 00 
   448)      2066.505 1  Rx        0589 -  8    00 00 00 00 00 00 00 00 
   449)      2066.761 1  Rx        010F -  8    20 00 00 00 00 00 00 00 
   450)      2076.361 1  Rx        0168 -  8    98 00 0C 05 01 30 00 00 
   451)      2076.574 1  Rx        018B -  8    14 FF F8 00 EF 00 0C 00 
   452)      2076.830 1  Rx        0189 -  8    00 00 00 04 00 2A 00 C0 
   453)      2080.542 1  Rx        01BD -  8    C4 00 00 00 00 00 00 00 
   454)      2086.430 1  Rx        016A -  8    00 00 00 00 06 00 00 00 
   455)      2086.686 1  Rx        0110 -  8    00 00 00 00 00 00 00 00 
   456)      2086.942 1  Rx        018C -  8    81 00 00 00 20 00 00 00 
   457)      2091.806 1  Rx        0112 -  8    C0 88 09 5F 04 30 00 00 
   458)      2096.414 1  Rx        018D -  8    0A F1 57 0A 02 00 00 08 
   459)      2100.851 1  Rx        01BE -  8    C4 00 00 00 00 00 00 00 
   460)      2106.355 1  Rx        018E -  8    FF FF FF FF 01 00 00 00 
   461)      2106.739 1  Rx        0100 -  8    84 00 00 D8 00 04 80 00 
   462)      2106.995 1  Rx        0111 -  8    00 00 00 00 00 00 00 00 
   463)      2116.467 1  Rx        0189 -  8    00 00 00 04 00 2A 00 C0 
   464)      2126.451 1  Rx        016A -  8    00 00 00 00 06 00 00 00 
   465)      2126.920 1  Rx        0101 -  8    10 02 00 00 00 00 00 30 
   466)      2131.656 1  Rx        0112 -  8    C0 88 09 5F 04 30 00 00 
   467)      2146.419 1  Rx        0189 -  8    00 00 00 04 00 2B 00 C0 
   468)      2147.059 1  Rx        0102 -  8    00 00 A2 00 00 00 00 00 
   469)      2147.315 1  Rx        0113 -  8    10 C0 00 00 00 00 00 00 
   470)      2147.571 1  Rx        0400 -  8    06 02 00 00 00 00 FF FF 
   471)      2166.557 1  Rx        0103 -  8    00 00 00 00 00 00 00 00 
   472)      2166.813 1  Rx        0510 -  8    00 00 00 00 00 00 00 00 
   473)      2186.354 1  Rx        0189 -  8    00 00 00 04 00 28 00 C0 
   474)      2186.610 1  Rx        0104 -  8    00 40 00 02 00 34 01 00 
   475)      2186.866 1  Rx        0112 -  8    C0 88 08 5F 04 30 00 00 
   476)      2188.103 1  Rx        0140 -  8    00 00 00 00 00 00 00 00 
   477)      2206.620 1  Rx        0105 -  8    00 00 00 00 08 00 00 00 
   478)      2208.071 1  Rx        0141 -  8    90 00 00 00 00 00 00 00 
   479)      2226.375 1  Rx        0189 -  8    00 00 00 04 00 28 00 C0 
   480)      2226.631 1  Rx        018F -  8    00 00 40 00 00 00 00 00 
   481)      2226.844 1  Rx        0106 -  8    00 00 00 00 00 3E 3C 4C 
   482)      2227.100 1  Rx        0112 -  8    C0 88 08 5F 04 30 00 00 
   483)      2228.124 1  Rx        0142 -  8    00 55 55 00 00 01 14 00 
   484)      2236.401 1  Rx        0168 -  8    98 00 0C 05 01 30 00 00 
   485)      2236.657 1  Rx        01F7 -  8    00 00 00 40 00 00 00 00 
   486)      2243.100 1  Rx        0406 -  8    16 02 00 00 00 00 FF FF 
   487)      2246.342 1  Rx        0169 -  8    00 20 00 00 08 40 C0 00 
   488)      2246.598 1  Rx        0188 -  8    00 60 00 02 00 00 00 00 
   489)      2246.812 1  Rx        0107 -  8    00 00 00 20 00 00 00 00 
   490)      2247.068 1  Rx        01FA -  8    FF C0 00 00 00 00 00 00 
   491)      2248.134 1  Rx        0540 -  8    62 60 66 00 00 00 00 00 
   492)      2256.540 1  Rx        016A -  8    00 00 00 00 06 00 00 00 
   493)      2256.753 1  Rx        0189 -  8    00 00 00 04 00 29 00 C0 
   494)      2257.222 1  Rx        0588 -  8    78 00 00 00 00 00 00 00 
   495)      2266.139 1  Rx        018A -  8    00 00 00 00 00 00 30 00 
   496)      2266.566 1  Rx        0589 -  8    00 00 00 00 00 00 00 00 
   497)      2266.822 1  Rx        010F -  8    20 00 00 00 00 00 00 00 
   498)      2267.035 1  Rx        0112 -  8    C0 88 08 5F 04 30 00 00 
   499)      2276.422 1  Rx        018B -  8    14 FF F8 00 EF 00 0C 00 
   500)      2281.030 1  Rx        01BD -  8    C4 00 00 00 00 00 00 00 
   501)      2286.448 1  Rx        018C -  8    81 00 00 00 20 00 00 00 
   502)      2286.704 1  Rx        0110 -  8    00 00 00 00 00 00 00 00 
   503)      2296.560 1  Rx        0189 -  8    00 00 00 04 00 29 00 C0 
   504)      2296.816 1  Rx        018D -  8    0A F1 57 0A 02 00 00 08 
   505)      2300.358 1  Rx        01BE -  8    C4 00 00 00 00 00 00 00 
   506)      2306.544 1  Rx        018E -  8    FF FF FF FF 01 00 00 00 
   507)      2306.800 1  Rx        0100 -  8    84 00 00 D8 00 04 80 00 
   508)      2307.056 1  Rx        0111 -  8    00 00 00 00 00 00 00 00 
   509)      2326.426 1  Rx        0189 -  8    00 00 00 04 00 2A 00 C0 
   510)      2326.640 1  Rx        0101 -  8    10 02 00 00 00 00 00 30 
   511)      2326.896 1  Rx        0112 -  8    C0 88 08 5F 04 30 00 00 
   512)      2337.221 1  Rx        0416 -  8    00 02 00 00 00 00 FF FF 
   513)      2346.565 1  Rx        0102 -  8    00 00 A2 00 00 00 00 00 
   514)      2346.821 1  Rx        0113 -  8    10 C0 00 00 00 00 00 00 
   515)      2366.106 1  Rx        0189 -  8    00 00 00 04 00 2B 00 C0 
   516)      2366.661 1  Rx        0103 -  8    00 00 00 00 00 00 00 00 
   517)      2366.917 1  Rx        0510 -  8    00 00 00 00 00 00 00 00 
   518)      2386.586 1  Rx        0104 -  8    00 40 00 02 00 34 01 00 
   519)      2388.250 1  Rx        0140 -  8    00 00 00 00 00 00 00 00 
   520)      2406.596 1  Rx        0105 -  8    00 00 00 00 08 00 00 00 
   521)      2406.852 1  Rx        0189 -  8    00 00 00 04 00 2B 00 C0 
   522)      2408.303 1  Rx        0141 -  8    90 00 00 00 00 00 00 00 
   523)      2426.436 1  Rx        018F -  8    00 00 40 00 00 00 00 00 
   524)      2426.692 1  Rx        0106 -  8    00 00 00 00 00 3E 3C 4C 
   525)      2428.270 1  Rx        0142 -  8    00 55 55 00 00 01 14 00 
   526)      2436.377 1  Rx        0168 -  8    98 00 0C 05 01 30 00 00 
   527)      2436.633 1  Rx        01F7 -  8    00 00 00 40 00 00 00 00 
   528)      2436.846 1  Rx        0189 -  8    00 00 00 04 00 28 00 C0 
   529)      2437.102 1  Rx        0400 -  8    06 02 00 00 00 00 FF FF 
   530)      2446.617 1  Rx        0107 -  8    00 00 00 20 00 00 00 00 
   531)      2446.830 1  Rx        0169 -  8    00 20 00 00 08 40 C0 00 
   532)      2447.086 1  Rx        016A -  8    08 00 00 00 06 00 00 00 
   533)      2447.342 1  Rx        0188 -  8    00 60 00 02 00 00 00 00 
   534)      2447.598 1  Rx        01FA -  8    FF C0 00 00 00 00 00 00 
   535)      2448.323 1  Rx        0540 -  8    62 60 66 00 00 00 00 00 
   536)      2457.070 1  Rx        0588 -  8    78 00 00 00 00 00 00 00 
   537)      2466.030 1  Rx        0168 -  8    98 00 0C 05 01 30 80 00 
   538)      2466.286 1  Rx        018A -  8    00 00 00 00 00 00 30 00 
   539)      2466.584 1  Rx        0589 -  8    00 00 00 00 00 00 00 00 
   540)      2466.798 1  Rx        010F -  8    20 00 00 00 00 00 00 00 
   541)      2476.397 1  Rx        0189 -  8    00 00 00 04 00 28 00 C0 
   542)      2476.653 1  Rx        018B -  8    14 FF F8 00 EF 00 0C 00 
   543)      2480.792 1  Rx        01BD -  8    C4 00 00 00 00 00 00 00 
   544)      2486.509 1  Rx        016A -  8    08 00 00 00 06 00 00 00 
   545)      2486.765 1  Rx        0110 -  8    00 00 00 00 00 00 00 00 
   546)      2486.979 1  Rx        018C -  8    81 00 00 00 20 00 00 00 
   547)      2496.536 1  Rx        018D -  8    0A F1 57 0A 02 00 00 08 
   548)      2500.077 1  Rx        01BE -  8    C4 00 00 00 00 00 00 00 
   549)      2506.392 1  Rx        0168 -  8    98 00 0C 05 01 30 80 00 
   550)      2506.648 1  Rx        0100 -  8    84 00 00 D8 00 04 80 00 
   551)      2506.904 1  Rx        0111 -  8    00 00 00 00 00 00 00 00 
   552)      2507.117 1  Rx        0189 -  8    00 00 00 04 00 29 00 C0 
   553)      2507.373 1  Rx        018E -  8    FF FF FF FF 01 00 00 00 
   554)      2526.487 1  Rx        016A -  8    08 00 00 00 06 00 00 00 
   555)      2526.743 1  Rx        0101 -  8    10 02 00 00 00 00 00 30 
   556)      2526.999 1  Rx        0112 -  8    C0 88 08 5F 04 30 00 00 
   557)      2533.399 1  Rx        0406 -  8    16 02 00 00 00 00 FF FF 
   558)      2546.156 1  Rx        0168 -  8    98 00 0C 05 01 30 80 00 
   559)      2546.412 1  Rx        0189 -  8    00 00 00 04 00 29 00 C0 
   560)      2546.668 1  Rx        0102 -  8    00 00 A2 00 00 00 00 00 
   561)      2546.924 1  Rx        0113 -  8    10 C0 00 00 00 00 00 00 
   562)      2566.593 1  Rx        0103 -  8    00 00 00 00 00 00 00 00 
   563)      2566.849 1  Rx        0510 -  8    00 00 00 00 00 00 00 00 
   564)      2576.492 1  Rx        0189 -  8    00 00 00 04 00 2A 00 C0 
   565)      2586.561 1  Rx        0104 -  8    00 40 00 02 00 34 01 00 
   566)      2588.438 1  Rx        0140 -  8    00 00 00 00 00 00 00 00 
   567)      2606.486 1  Rx        0189 -  8    00 00 00 04 00 2B 00 C0 
   568)      2606.742 1  Rx        0105 -  8    00 00 00 00 08 00 00 00 
   569)      2608.491 1  Rx        0141 -  8    90 00 00 00 00 00 00 00 
   570)      2626.454 1  Rx        018F -  8    00 00 40 00 00 00 00 00 
   571)      2626.710 1  Rx        0106 -  8    00 00 00 00 00 3E 3C 4C 
   572)      2627.094 1  Rx        0416 -  8    00 02 00 00 00 00 FF FF 
   573)      2628.459 1  Rx        0142 -  8    00 55 55 00 00 01 14 00 
   574)      2636.352 1  Rx        0168 -  8    98 00 0C 05 01 30 80 00 
   575)      2636.608 1  Rx        01F7 -  8    00 00 00 40 00 00 00 00 
   576)      2646.421 1  Rx        0169 -  8    00 20 00 00 08 40 C0 00 
   577)      2646.677 1  Rx        0188 -  8    00 60 00 02 00 00 00 00 
   578)      2646.891 1  Rx        0107 -  8    00 00 00 20 00 00 00 00 
   579)      2647.147 1  Rx        0189 -  8    00 00 00 04 00 2B 00 C0 
   580)      2647.403 1  Rx        01FA -  8    FF C0 00 00 00 00 00 00 
   581)      2648.555 1  Rx        0540 -  8    62 60 66 00 00 00 00 00 
   582)      2656.491 1  Rx        016A -  8    08 00 00 00 06 00 00 00 
   583)      2657.088 1  Rx        0588 -  8    78 00 00 00 00 00 00 00 
   584)      2666.133 1  Rx        018A -  8    00 00 00 00 00 00 30 00 
   585)      2666.560 1  Rx        0589 -  8    00 00 00 00 00 00 00 00 
   586)      2666.816 1  Rx        010F -  8    20 00 00 00 00 00 00 00 
   587)      2676.373 1  Rx        0189 -  8    00 00 00 04 00 28 00 C0 
   588)      2676.629 1  Rx        018B -  8    14 FF F8 00 EF 00 0C 00 
   589)      2680.341 1  Rx        01BD -  8    C4 00 00 00 00 00 00 00 
   590)      2686.485 1  Rx        018C -  8    81 00 00 00 20 00 00 00 
   591)      2686.741 1  Rx        0110 -  8    00 00 00 00 00 00 00 00 
   592)      2696.554 1  Rx        018D -  8    0A F1 57 0A 02 00 00 08 
   593)      2700.479 1  Rx        01BE -  8    C4 00 00 00 00 00 00 00 
   594)      2706.538 1  Rx        018E -  8    FF FF FF FF 01 00 00 00 
   595)      2706.794 1  Rx        0100 -  8    84 00 00 D8 00 04 80 00 
   596)      2707.050 1  Rx        0111 -  8    00 00 00 00 00 00 00 00 
   597)      2716.479 1  Rx        0189 -  8    00 00 00 04 00 28 00 C0 
   598)      2726.591 1  Rx        0101 -  8    10 02 00 00 00 00 00 30 
   599)      2726.847 1  Rx        0112 -  8    C0 88 08 5F 04 30 00 00 
   600)      2727.060 1  Rx        0400 -  8    06 02 00 00 00 00 FF FF 
   601)      2746.388 1  Rx        0189 -  8    00 00 00 04 00 29 00 C0 
   602)      2746.644 1  Rx        0102 -  8    00 00 A2 00 00 00 00 00 
   603)      2746.900 1  Rx        0113 -  8    10 C0 00 00 00 00 00 00 
   604)      2766.569 1  Rx        0103 -  8    00 00 00 00 00 00 00 00 
   605)      2766.825 1  Rx        0510 -  8    00 00 00 00 00 00 00 00 
   606)      2786.366 1  Rx        0189 -  8    00 00 00 04 00 2A 00 C0 
   607)      2786.622 1  Rx        0104 -  8    00 40 00 02 00 34 01 00 
   608)      2788.670 1  Rx        0140 -  8    00 00 00 00 00 00 00 00 
   609)      2806.492 1  Rx        0168 -  8    98 00 0C 05 01 30 00 00 
   610)      2806.748 1  Rx        0105 -  8    00 00 00 00 08 00 00 00 
   611)      2808.710 1  Rx        0141 -  8    90 00 00 00 00 00 00 00 
   612)      2823.686 1  Rx        0406 -  8    16 02 00 00 00 00 FF FF 
   613)      2826.417 1  Rx        0189 -  8    00 00 00 04 00 2A 00 C0 
   614)      2826.673 1  Rx        0106 -  8    00 00 00 00 00 3E 3C 4C 
   615)      2826.929 1  Rx        018F -  8    00 00 40 00 00 00 00 00 
   616)      2828.721 1  Rx        0142 -  8    00 55 55 00 00 01 14 00 
   617)      2836.529 1  Rx        01F7 -  8    00 00 00 40 00 00 00 00 
   618)      2846.427 1  Rx        0168 -  8    98 00 0C 05 01 30 00 00 
   619)      2846.683 1  Rx        0107 -  8    00 00 00 20 00 00 00 00 
   620)      2846.939 1  Rx        0169 -  8    00 20 00 00 08 40 C0 00 
   621)      2847.195 1  Rx        0188 -  8    00 60 00 02 00 00 00 00 
   622)      2847.451 1  Rx        01FA -  8    FF C0 00 00 00 00 00 00 
   623)      2848.774 1  Rx        0540 -  8    62 60 66 00 00 00 00 00 
   624)      2856.496 1  Rx        016A -  8    08 00 00 00 06 00 00 00 
   625)      2856.752 1  Rx        0189 -  8    00 00 00 04 00 2B 00 C0 
   626)      2857.179 1  Rx        0588 -  8    78 00 00 00 00 00 00 00 
   627)      2866.139 1  Rx        018A -  8    00 00 00 00 00 00 30 00 
   628)      2866.523 1  Rx        0589 -  8    00 00 00 00 00 00 00 00 
   629)      2866.779 1  Rx        010F -  8    20 00 00 00 00 00 00 00 
   630)      2876.421 1  Rx        018B -  8    14 FF F8 00 EF 00 0C 00 
   631)      2880.560 1  Rx        01BD -  8    C4 00 00 00 00 00 00 00 
   632)      2886.448 1  Rx        0168 -  8    98 00 0C 05 01 30 00 00 
   633)      2886.704 1  Rx        0110 -  8    00 00 00 00 00 00 00 00 
   634)      2886.960 1  Rx        018C -  8    81 00 00 00 20 00 00 00 
   635)      2896.517 1  Rx        0189 -  8    00 00 00 04 00 2B 00 C0 
   636)      2896.816 1  Rx        018D -  8    0A F1 57 0A 02 00 00 08 
   637)      2899.930 1  Rx        01BE -  8    C4 00 00 00 00 00 00 00 
   638)      2906.586 1  Rx        0100 -  8    84 00 00 D8 00 04 80 00 
   639)      2906.842 1  Rx        0111 -  8    00 00 00 00 00 00 00 00 
   640)      2907.098 1  Rx        018E -  8    FF FF FF FF 01 00 00 00 
   641)      2917.039 1  Rx        0416 -  8    00 02 00 00 00 00 FF FF 
   642)      2926.468 1  Rx        0189 -  8    00 00 00 04 00 28 00 C0 
   643)      2926.682 1  Rx        0101 -  8    10 02 00 00 00 00 00 30 
   644)      2926.938 1  Rx        0112 -  8    C0 88 08 5F 04 30 00 00 
   645)      2946.607 1  Rx        0102 -  8    00 00 A2 00 00 00 00 00 
   646)      2946.820 1  Rx        0113 -  8    10 C0 00 00 00 00 00 00 
   647)      2966.148 1  Rx        0189 -  8    00 00 00 04 00 29 00 C0 
   648)      2966.660 1  Rx        0103 -  8    00 00 00 00 00 00 00 00 
   649)      2966.916 1  Rx        0510 -  8    00 00 00 00 00 00 00 00 
   650)      2986.585 1  Rx        0104 -  8    00 40 00 02 00 34 01 00 
   651)      2988.846 1  Rx        0140 -  8    00 00 00 00 00 00 00 00 
   652)      3006.425 1  Rx        0189 -  8    00 00 00 04 00 29 00 C0 
   653)      3006.681 1  Rx        0105 -  8    00 00 00 00 08 00 00 00 
   654)      3008.899 1  Rx        0141 -  8    90 00 00 00 00 00 00 00 
   655)      3016.707 1  Rx        0400 -  8    06 02 00 00 00 00 FF FF 
   656)      3026.435 1  Rx        018F -  8    00 00 40 00 00 00 00 00 
   657)      3026.691 1  Rx        0106 -  8    00 00 00 00 00 3E 3C 4C 
   658)      3028.867 1  Rx        0142 -  8    00 55 55 00 00 01 14 00 
   659)      3036.376 1  Rx        0168 -  8    98 00 0C 05 01 30 00 00 
   660)      3036.632 1  Rx        01F7 -  8    00 00 00 40 00 00 00 00 
   661)      3036.888 1  Rx        0189 -  8    00 00 00 04 00 2A 00 C0 
   662)      3046.360 1  Rx        0169 -  8    00 20 00 00 08 40 C0 00 
   663)      3046.573 1  Rx        0188 -  8    00 60 00 02 00 00 00 00 
